
T245C 000:109 SEGGER J-Link V6.00e Log File (0000ms, 0031ms total)
T245C 000:109 DLL Compiled: Aug  4 2016 09:37:38 (0000ms, 0031ms total)
T245C 000:109 Logging started @ 2018-01-11 18:46 (0000ms, 0031ms total)
T245C 000:109 JLINK_SetWarnOutHandler(...) (0000ms, 0031ms total)
T245C 000:109 JLINK_OpenEx(...)
Firmware: J-Link V9 compiled Aug  3 2016 18:50:44
Hardware: V9.10
S/N: 59190090
Feature(s): GDB, RDI, FlashBP, FlashDL, JFlash  returns O.K. (0016ms, 0047ms total)
T245C 000:125 JLINK_SetErrorOutHandler(...) (0000ms, 0047ms total)
T245C 000:125 JLINK_ExecCommand("ProjectFile = "F:\company_pro\校园一卡通\code\CardReaderV2.2.1\FM1208-CPU\PN532 reader - 消费\USER\JLinkSettings.ini"", ...).   returns 0x00 (0093ms, 0140ms total)
T245C 000:222 JLINK_ExecCommand("Device = STM32F103RE", ...). Device "STM32F103RE" selected.  returns 0x00 (0002ms, 0142ms total)
T245C 000:224 JLINK_ExecCommand("DisableConnectionTimeout", ...).   returns 0x01 (0000ms, 0142ms total)
T245C 000:224 JLINK_GetHardwareVersion()  returns 0x16378 (0000ms, 0142ms total)
T245C 000:224 JLINK_GetDLLVersion()  returns 60005 (0000ms, 0142ms total)
T245C 000:224 JLINK_GetFirmwareString(...) (0000ms, 0142ms total)
T245C 000:229 JLINK_GetDLLVersion()  returns 60005 (0000ms, 0142ms total)
T245C 000:229 JLINK_GetCompileDateTime() (0000ms, 0142ms total)
T245C 000:231 JLINK_GetFirmwareString(...) (0000ms, 0142ms total)
T245C 000:234 JLINK_GetHardwareVersion()  returns 0x16378 (0000ms, 0142ms total)
T245C 000:245 JLINK_TIF_Select(JLINKARM_TIF_SWD)  returns 0x00 (0000ms, 0142ms total)
T245C 000:245 JLINK_SetSpeed(5000) (0000ms, 0142ms total)
T245C 000:245 JLINK_GetId() >0x108 TIF>Found SWD-DP with ID 0x1BA01477 >0x0D TIF> >0x28 TIF> >0x0D TIF> >0x28 TIF> >0x0D TIF> >0x28 TIF> >0x0D TIF> >0x28 TIF> >0x0D TIF> >0x21 TIF> >0x0D TIF> >0x28 TIF> >0x0D TIF> >0x28 TIF> >0x0D TIF> >0x28 TIF> >0x0D TIF> >0x21 TIF> >0x0D TIF> >0x21 TIF> >0x0D TIF> >0x28 TIF> >0x0D TIF> >0x21 TIF> >0x0D TIF> >0x21 TIF> >0x0D TIF> >0x28 TIF> >0x0D TIF> >0x28 TIF> >0x0D TIF> >0x28 TIF> >0x0D TIF> >0x21 TIF> >0x0D TIF> >0x21 TIF> >0x0D TIF> >0x28 TIF> >0x0D TIF>
 >0x21 TIF> >0x0D TIF> >0x21 TIF> >0x0D TIF> >0x28 TIF> >0x0D TIF> >0x21 TIF> >0x0D TIF> >0x21 TIF> >0x0D TIF> >0x28 TIF> >0x0D TIF> >0x21 TIF> >0x0D TIF> >0x21 TIF> >0x0D TIF> >0x28 TIF> >0x0D TIF> >0x21 TIF> >0x0D TIF> >0x21 TIF> >0x108 TIF>Found SWD-DP with ID 0x1BA01477 >0x0D TIF> >0x28 TIF> >0x0D TIF> >0x28 TIF> >0x0D TIF> >0x28 TIF> >0x0D TIF> >0x28 TIF> >0x0D TIF> >0x21 TIF> >0x0D TIF> >0x28 TIF> >0x0D TIF> >0x28 TIF> >0x0D TIF> >0x21 TIF> >0x0D TIF> >0x21 TIF> >0x0D TIF> >0x21 TIF>
AP-IDR: 0x14770011, Type: AHB-AP >0x0D TIF> >0x28 TIF> >0x0D TIF> >0x28 TIF> >0x0D TIF> >0x28 TIF> >0x0D TIF> >0x21 TIF> >0x0D TIF> >0x21 TIF> >0x0D TIF> >0x28 TIF> >0x0D TIF> >0x21 TIF> >0x0D TIF> >0x21 TIF>Found Cortex-M3 r1p1, Little endian. -- CPU_ReadMem(4 bytes @ 0xE000EDF0) -- CPU_WriteMem(4 bytes @ 0xE000EDF0) -- CPU_ReadMem(4 bytes @ 0xE0002000)FPUnit: 6 code (BP) slots and 2 literal slots -- CPU_ReadMem(4 bytes @ 0xE000EDFC) -- CPU_WriteMem(4 bytes @ 0xE000EDFC)
 -- CPU_ReadMem(4 bytes @ 0xE0001000) -- CPU_WriteMem(4 bytes @ 0xE0001000) -- CPU_ReadMem(4 bytes @ 0xE000ED88) -- CPU_WriteMem(4 bytes @ 0xE000ED88) -- CPU_ReadMem(4 bytes @ 0xE000ED88) -- CPU_WriteMem(4 bytes @ 0xE000ED88)CoreSight components:ROMTbl 0 @ E00FF000 -- CPU_ReadMem(16 bytes @ 0xE00FF000) -- CPU_ReadMem(16 bytes @ 0xE000EFF0) -- CPU_ReadMem(16 bytes @ 0xE000EFE0)ROMTbl 0 [0]: FFF0F000, CID: B105E00D, PID: 001BB000 SCS -- CPU_ReadMem(16 bytes @ 0xE0001FF0)
 -- CPU_ReadMem(16 bytes @ 0xE0001FE0)ROMTbl 0 [1]: FFF02000, CID: B105E00D, PID: 001BB002 DWT -- CPU_ReadMem(16 bytes @ 0xE0002FF0) -- CPU_ReadMem(16 bytes @ 0xE0002FE0)ROMTbl 0 [2]: FFF03000, CID: B105E00D, PID: 000BB003 FPB -- CPU_ReadMem(16 bytes @ 0xE0000FF0) -- CPU_ReadMem(16 bytes @ 0xE0000FE0)ROMTbl 0 [3]: FFF01000, CID: B105E00D, PID: 001BB001 ITM -- CPU_ReadMem(16 bytes @ 0xE00FF010) -- CPU_ReadMem(16 bytes @ 0xE0040FF0) -- CPU_ReadMem(16 bytes @ 0xE0040FE0)
ROMTbl 0 [4]: FFF41000, CID: B105900D, PID: 001BB923 TPIU-Lite -- CPU_ReadMem(16 bytes @ 0xE0041FF0) -- CPU_ReadMem(16 bytes @ 0xE0041FE0)ROMTbl 0 [5]: FFF42000, CID: B105900D, PID: 101BB924 ETM-M3 >0x0D TIF> >0x21 TIF>  returns 0x1BA01477 (0050ms, 0192ms total)
T245C 000:295 JLINK_GetDLLVersion()  returns 60005 (0000ms, 0192ms total)
T245C 000:295 JLINK_CORE_GetFound()  returns 0x30000FF (0000ms, 0192ms total)
T245C 000:295 JLINK_GetDebugInfo(0x100) -- Value=0xE00FF000  returns 0x00 (0000ms, 0192ms total)
T245C 000:298 JLINK_GetDebugInfo(0x100) -- Value=0xE00FF000  returns 0x00 (0000ms, 0192ms total)
T245C 000:298 JLINK_GetDebugInfo(0x101) -- Value=0xE0041000  returns 0x00 (0000ms, 0192ms total)
T245C 000:298 JLINK_GetDebugInfo(0x102) -- Value=0x00000000  returns 0x00 (0000ms, 0192ms total)
T245C 000:298 JLINK_GetDebugInfo(0x103) -- Value=0xE0040000  returns 0x00 (0000ms, 0192ms total)
T245C 000:298 JLINK_GetDebugInfo(0x104) -- Value=0xE0000000  returns 0x00 (0000ms, 0192ms total)
T245C 000:298 JLINK_GetDebugInfo(0x105) -- Value=0xE0001000  returns 0x00 (0000ms, 0192ms total)
T245C 000:298 JLINK_GetDebugInfo(0x106) -- Value=0xE0002000  returns 0x00 (0000ms, 0192ms total)
T245C 000:298 JLINK_GetDebugInfo(0x107) -- Value=0xE000E000  returns 0x00 (0000ms, 0192ms total)
T245C 000:298 JLINK_GetDebugInfo(0x10C) -- Value=0xE000EDF0  returns 0x00 (0000ms, 0192ms total)
T245C 000:298 JLINK_ReadMemU32(0xE000ED00, 0x0001 Items, ...) -- CPU is running -- CPU_ReadMem(4 bytes @ 0xE000ED00) - Data: 31 C2 1F 41  returns 0x01 (0000ms, 0192ms total)
T245C 000:298 JLINK_SetResetType(JLINKARM_RESET_TYPE_NORMAL)  returns JLINKARM_RESET_TYPE_NORMAL (0000ms, 0192ms total)
T245C 000:298 JLINK_Reset() -- CPU is running -- CPU_WriteMem(4 bytes @ 0xE000EDF0) -- CPU is running -- CPU_WriteMem(4 bytes @ 0xE000EDFC) >0x35 TIF> -- CPU is running -- CPU_WriteMem(4 bytes @ 0xE000ED0C) -- CPU is running -- CPU_ReadMem(4 bytes @ 0xE000EDF0) -- CPU is running -- CPU_ReadMem(4 bytes @ 0xE000EDF0) -- CPU is running -- CPU_WriteMem(4 bytes @ 0xE000EDF0) -- CPU is running -- CPU_WriteMem(4 bytes @ 0xE000EDFC) -- CPU is running -- CPU_ReadMem(4 bytes @ 0xE000EDF0)
 -- CPU_WriteMem(4 bytes @ 0xE0002000) -- CPU_ReadMem(4 bytes @ 0xE000EDFC) -- CPU_ReadMem(4 bytes @ 0xE0001000) (0015ms, 0207ms total)
T245C 000:313 JLINK_Halt()  returns 0x00 (0000ms, 0207ms total)
T245C 000:313 JLINK_IsHalted()  returns TRUE (0000ms, 0207ms total)
T245C 000:313 JLINK_ReadMemU32(0xE000EDF0, 0x0001 Items, ...) -- CPU_ReadMem(4 bytes @ 0xE000EDF0) - Data: 03 00 03 00  returns 0x01 (0000ms, 0207ms total)
T245C 000:313 JLINK_WriteU32(0xE000EDF0, 0xA05F0003) -- CPU_WriteMem(4 bytes @ 0xE000EDF0)  returns 0x00 (0001ms, 0208ms total)
T245C 000:314 JLINK_WriteU32(0xE000EDFC, 0x01000000) -- CPU_WriteMem(4 bytes @ 0xE000EDFC)  returns 0x00 (0000ms, 0208ms total)
T245C 000:323 JLINK_GetHWStatus(...)  returns 0x00 (0000ms, 0208ms total)
T245C 000:332 JLINK_GetNumBPUnits(Type = 0xFFFFFF00)  returns 0x06 (0000ms, 0208ms total)
T245C 000:332 JLINK_GetNumBPUnits(Type = 0xF0)  returns 0x2000 (0000ms, 0208ms total)
T245C 000:332 JLINK_GetNumWPUnits()  returns 0x04 (0000ms, 0208ms total)
T245C 000:339 JLINK_GetSpeed()  returns 0xFA0 (0000ms, 0208ms total)
T245C 000:347 JLINK_ReadMemU32(0xE000E004, 0x0001 Items, ...) -- CPU_ReadMem(4 bytes @ 0xE000E004) - Data: 01 00 00 00  returns 0x01 (0000ms, 0208ms total)
T245C 000:347 JLINK_ReadMemU32(0xE000E004, 0x0001 Items, ...) -- CPU_ReadMem(4 bytes @ 0xE000E004) - Data: 01 00 00 00  returns 0x01 (0001ms, 0209ms total)
T245C 000:348 JLINK_WriteMem(0xE0001000, 0x001C Bytes, ...) - Data: 01 00 00 00 00 00 00 00 00 00 00 00 00 00 00 00 ... -- CPU_WriteMem(28 bytes @ 0xE0001000)  returns 0x1C (0000ms, 0209ms total)
T245C 000:348 JLINK_ReadMem (0xE0001000, 0x001C Bytes, ...) -- CPU_ReadMem(28 bytes @ 0xE0001000) - Data: 01 00 00 40 00 00 00 00 00 00 00 00 00 00 00 00 ...  returns 0x00 (0001ms, 0210ms total)
T245C 000:349 JLINK_Halt()  returns 0x00 (0000ms, 0210ms total)
T245C 000:349 JLINK_IsHalted()  returns TRUE (0000ms, 0210ms total)
T245C 000:351 JLINK_WriteMem(0x20000000, 0x0164 Bytes, ...) - Data: 00 BE 0A E0 0D 78 2D 06 68 40 08 24 40 00 00 D3 ... -- CPU_WriteMem(356 bytes @ 0x20000000)  returns 0x164 (0002ms, 0212ms total)
T245C 000:353 JLINK_WriteReg(R0, 0x08000000)  returns 0x00 (0000ms, 0212ms total)
T245C 000:353 JLINK_WriteReg(R1, 0x007A1200)  returns 0x00 (0000ms, 0212ms total)
T245C 000:353 JLINK_WriteReg(R2, 0x00000001)  returns 0x00 (0000ms, 0212ms total)
T245C 000:353 JLINK_WriteReg(R3, 0x00000000)  returns 0x00 (0000ms, 0212ms total)
T245C 000:353 JLINK_WriteReg(R4, 0x00000000)  returns 0x00 (0000ms, 0212ms total)
T245C 000:353 JLINK_WriteReg(R5, 0x00000000)  returns 0x00 (0000ms, 0212ms total)
T245C 000:353 JLINK_WriteReg(R6, 0x00000000)  returns 0x00 (0000ms, 0212ms total)
T245C 000:353 JLINK_WriteReg(R7, 0x00000000)  returns 0x00 (0001ms, 0213ms total)
T245C 000:354 JLINK_WriteReg(R8, 0x00000000)  returns 0x00 (0000ms, 0213ms total)
T245C 000:354 JLINK_WriteReg(R9, 0x20000160)  returns 0x00 (0000ms, 0213ms total)
T245C 000:354 JLINK_WriteReg(R10, 0x00000000)  returns 0x00 (0000ms, 0213ms total)
T245C 000:354 JLINK_WriteReg(R11, 0x00000000)  returns 0x00 (0000ms, 0213ms total)
T245C 000:354 JLINK_WriteReg(R12, 0x00000000)  returns 0x00 (0000ms, 0213ms total)
T245C 000:354 JLINK_WriteReg(R13 (SP), 0x20000800)  returns 0x00 (0000ms, 0213ms total)
T245C 000:354 JLINK_WriteReg(R14, 0x20000001)  returns 0x00 (0000ms, 0213ms total)
T245C 000:354 JLINK_WriteReg(R15 (PC), 0x20000038)  returns 0x00 (0000ms, 0213ms total)
T245C 000:354 JLINK_WriteReg(XPSR, 0x01000000)  returns 0x00 (0000ms, 0213ms total)
T245C 000:354 JLINK_WriteReg(MSP, 0x20000800)  returns 0x00 (0000ms, 0213ms total)
T245C 000:354 JLINK_WriteReg(PSP, 0x20000800)  returns 0x00 (0000ms, 0213ms total)
T245C 000:354 JLINK_WriteReg(CFBP, 0x00000000)  returns 0x00 (0000ms, 0213ms total)
T245C 000:354 JLINK_SetBPEx(Addr = 0x20000000, Type = 0xFFFFFFF2) -- CPU_ReadMem(2 bytes @ 0x20000000)  returns 0x00000001 (0000ms, 0213ms total)
T245C 000:354 JLINK_Go() -- CPU_WriteMem(2 bytes @ 0x20000000) -- CPU_ReadMem(4 bytes @ 0xE0001000) -- CPU_WriteMem(4 bytes @ 0xE0002008) -- CPU_WriteMem(4 bytes @ 0xE000200C) -- CPU_WriteMem(4 bytes @ 0xE0002010) -- CPU_WriteMem(4 bytes @ 0xE0002014) -- CPU_WriteMem(4 bytes @ 0xE0002018) -- CPU_WriteMem(4 bytes @ 0xE000201C) -- CPU_WriteMem(4 bytes @ 0xE0001004) (0003ms, 0216ms total)
T245C 000:357 JLINK_IsHalted() -- CPU_ReadMem(2 bytes @ 0x20000000)  returns TRUE (0002ms, 0218ms total)
T245C 000:359 JLINK_ReadReg(R15 (PC))  returns 0x20000000 (0000ms, 0216ms total)
T245C 000:359 JLINK_ClrBPEx(BPHandle = 0x00000001)  returns 0x00 (0000ms, 0216ms total)
T245C 000:359 JLINK_ReadReg(R0)  returns 0x00000000 (0000ms, 0216ms total)
T245C 000:359 JLINK_WriteReg(R0, 0x08000000)  returns 0x00 (0000ms, 0216ms total)
T245C 000:359 JLINK_WriteReg(R1, 0x007A1200)  returns 0x00 (0000ms, 0216ms total)
T245C 000:359 JLINK_WriteReg(R2, 0x00000001)  returns 0x00 (0000ms, 0216ms total)
T245C 000:359 JLINK_WriteReg(R3, 0x00000000)  returns 0x00 (0000ms, 0216ms total)
T245C 000:359 JLINK_WriteReg(R4, 0x00000000)  returns 0x00 (0000ms, 0216ms total)
T245C 000:359 JLINK_WriteReg(R5, 0x00000000)  returns 0x00 (0000ms, 0216ms total)
T245C 000:359 JLINK_WriteReg(R6, 0x00000000)  returns 0x00 (0000ms, 0216ms total)
T245C 000:359 JLINK_WriteReg(R7, 0x00000000)  returns 0x00 (0000ms, 0216ms total)
T245C 000:359 JLINK_WriteReg(R8, 0x00000000)  returns 0x00 (0000ms, 0216ms total)
T245C 000:359 JLINK_WriteReg(R9, 0x20000160)  returns 0x00 (0000ms, 0216ms total)
T245C 000:359 JLINK_WriteReg(R10, 0x00000000)  returns 0x00 (0000ms, 0216ms total)
T245C 000:359 JLINK_WriteReg(R11, 0x00000000)  returns 0x00 (0000ms, 0216ms total)
T245C 000:359 JLINK_WriteReg(R12, 0x00000000)  returns 0x00 (0000ms, 0216ms total)
T245C 000:359 JLINK_WriteReg(R13 (SP), 0x20000800)  returns 0x00 (0000ms, 0216ms total)
T245C 000:359 JLINK_WriteReg(R14, 0x20000001)  returns 0x00 (0000ms, 0216ms total)
T245C 000:359 JLINK_WriteReg(R15 (PC), 0x2000007C)  returns 0x00 (0000ms, 0216ms total)
T245C 000:359 JLINK_WriteReg(XPSR, 0x01000000)  returns 0x00 (0000ms, 0216ms total)
T245C 000:359 JLINK_WriteReg(MSP, 0x20000800)  returns 0x00 (0000ms, 0216ms total)
T245C 000:359 JLINK_WriteReg(PSP, 0x20000800)  returns 0x00 (0000ms, 0216ms total)
T245C 000:359 JLINK_WriteReg(CFBP, 0x00000000)  returns 0x00 (0000ms, 0216ms total)
T245C 000:359 JLINK_SetBPEx(Addr = 0x20000000, Type = 0xFFFFFFF2)  returns 0x00000002 (0000ms, 0216ms total)
T245C 000:359 JLINK_Go() -- CPU_ReadMem(4 bytes @ 0xE0001000) (0002ms, 0218ms total)
T245C 000:361 JLINK_IsHalted()  returns FALSE (0000ms, 0218ms total)
T245C 000:405 JLINK_IsHalted() -- CPU_ReadMem(2 bytes @ 0x20000000)  returns TRUE (0002ms, 0220ms total)
T245C 000:407 JLINK_ReadReg(R15 (PC))  returns 0x20000000 (0000ms, 0218ms total)
T245C 000:407 JLINK_ClrBPEx(BPHandle = 0x00000002)  returns 0x00 (0000ms, 0218ms total)
T245C 000:407 JLINK_ReadReg(R0)  returns 0x00000000 (0000ms, 0218ms total)
T245C 000:459 JLINK_WriteReg(R0, 0x00000001)  returns 0x00 (0000ms, 0218ms total)
T245C 000:459 JLINK_WriteReg(R1, 0x007A1200)  returns 0x00 (0000ms, 0218ms total)
T245C 000:459 JLINK_WriteReg(R2, 0x00000001)  returns 0x00 (0000ms, 0218ms total)
T245C 000:459 JLINK_WriteReg(R3, 0x00000000)  returns 0x00 (0000ms, 0218ms total)
T245C 000:459 JLINK_WriteReg(R4, 0x00000000)  returns 0x00 (0000ms, 0218ms total)
T245C 000:459 JLINK_WriteReg(R5, 0x00000000)  returns 0x00 (0000ms, 0218ms total)
T245C 000:459 JLINK_WriteReg(R6, 0x00000000)  returns 0x00 (0000ms, 0218ms total)
T245C 000:459 JLINK_WriteReg(R7, 0x00000000)  returns 0x00 (0000ms, 0218ms total)
T245C 000:459 JLINK_WriteReg(R8, 0x00000000)  returns 0x00 (0000ms, 0218ms total)
T245C 000:459 JLINK_WriteReg(R9, 0x20000160)  returns 0x00 (0000ms, 0218ms total)
T245C 000:459 JLINK_WriteReg(R10, 0x00000000)  returns 0x00 (0000ms, 0218ms total)
T245C 000:459 JLINK_WriteReg(R11, 0x00000000)  returns 0x00 (0000ms, 0218ms total)
T245C 000:459 JLINK_WriteReg(R12, 0x00000000)  returns 0x00 (0000ms, 0218ms total)
T245C 000:459 JLINK_WriteReg(R13 (SP), 0x20000800)  returns 0x00 (0000ms, 0218ms total)
T245C 000:459 JLINK_WriteReg(R14, 0x20000001)  returns 0x00 (0000ms, 0218ms total)
T245C 000:459 JLINK_WriteReg(R15 (PC), 0x2000006A)  returns 0x00 (0000ms, 0218ms total)
T245C 000:459 JLINK_WriteReg(XPSR, 0x01000000)  returns 0x00 (0000ms, 0218ms total)
T245C 000:459 JLINK_WriteReg(MSP, 0x20000800)  returns 0x00 (0000ms, 0218ms total)
T245C 000:459 JLINK_WriteReg(PSP, 0x20000800)  returns 0x00 (0000ms, 0218ms total)
T245C 000:459 JLINK_WriteReg(CFBP, 0x00000000)  returns 0x00 (0000ms, 0218ms total)
T245C 000:459 JLINK_SetBPEx(Addr = 0x20000000, Type = 0xFFFFFFF2)  returns 0x00000003 (0000ms, 0218ms total)
T245C 000:459 JLINK_Go() -- CPU_ReadMem(4 bytes @ 0xE0001000) (0002ms, 0220ms total)
T245C 000:461 JLINK_IsHalted() -- CPU_ReadMem(2 bytes @ 0x20000000)  returns TRUE (0002ms, 0222ms total)
T245C 000:463 JLINK_ReadReg(R15 (PC))  returns 0x20000000 (0000ms, 0220ms total)
T245C 000:463 JLINK_ClrBPEx(BPHandle = 0x00000003)  returns 0x00 (0000ms, 0220ms total)
T245C 000:463 JLINK_ReadReg(R0)  returns 0x00000000 (0000ms, 0220ms total)
T245C 000:476 JLINK_WriteMem(0x20000000, 0x0164 Bytes, ...) - Data: 00 BE 0A E0 0D 78 2D 06 68 40 08 24 40 00 00 D3 ... -- CPU_WriteMem(356 bytes @ 0x20000000)  returns 0x164 (0002ms, 0222ms total)
T245C 000:478 JLINK_WriteReg(R0, 0x08000000)  returns 0x00 (0000ms, 0222ms total)
T245C 000:478 JLINK_WriteReg(R1, 0x007A1200)  returns 0x00 (0000ms, 0222ms total)
T245C 000:478 JLINK_WriteReg(R2, 0x00000002)  returns 0x00 (0000ms, 0222ms total)
T245C 000:478 JLINK_WriteReg(R3, 0x00000000)  returns 0x00 (0000ms, 0222ms total)
T245C 000:478 JLINK_WriteReg(R4, 0x00000000)  returns 0x00 (0000ms, 0222ms total)
T245C 000:478 JLINK_WriteReg(R5, 0x00000000)  returns 0x00 (0000ms, 0222ms total)
T245C 000:478 JLINK_WriteReg(R6, 0x00000000)  returns 0x00 (0000ms, 0222ms total)
T245C 000:478 JLINK_WriteReg(R7, 0x00000000)  returns 0x00 (0000ms, 0222ms total)
T245C 000:478 JLINK_WriteReg(R8, 0x00000000)  returns 0x00 (0000ms, 0222ms total)
T245C 000:478 JLINK_WriteReg(R9, 0x20000160)  returns 0x00 (0000ms, 0222ms total)
T245C 000:478 JLINK_WriteReg(R10, 0x00000000)  returns 0x00 (0000ms, 0222ms total)
T245C 000:479 JLINK_WriteReg(R11, 0x00000000)  returns 0x00 (0000ms, 0223ms total)
T245C 000:479 JLINK_WriteReg(R12, 0x00000000)  returns 0x00 (0000ms, 0223ms total)
T245C 000:479 JLINK_WriteReg(R13 (SP), 0x20000800)  returns 0x00 (0000ms, 0223ms total)
T245C 000:479 JLINK_WriteReg(R14, 0x20000001)  returns 0x00 (0000ms, 0223ms total)
T245C 000:479 JLINK_WriteReg(R15 (PC), 0x20000038)  returns 0x00 (0000ms, 0223ms total)
T245C 000:479 JLINK_WriteReg(XPSR, 0x01000000)  returns 0x00 (0000ms, 0223ms total)
T245C 000:479 JLINK_WriteReg(MSP, 0x20000800)  returns 0x00 (0000ms, 0223ms total)
T245C 000:479 JLINK_WriteReg(PSP, 0x20000800)  returns 0x00 (0000ms, 0223ms total)
T245C 000:479 JLINK_WriteReg(CFBP, 0x00000000)  returns 0x00 (0000ms, 0223ms total)
T245C 000:479 JLINK_SetBPEx(Addr = 0x20000000, Type = 0xFFFFFFF2) -- CPU_ReadMem(2 bytes @ 0x20000000)  returns 0x00000004 (0000ms, 0223ms total)
T245C 000:479 JLINK_Go() -- CPU_WriteMem(2 bytes @ 0x20000000) -- CPU_ReadMem(4 bytes @ 0xE0001000) (0001ms, 0224ms total)
T245C 000:480 JLINK_IsHalted() -- CPU_ReadMem(2 bytes @ 0x20000000)  returns TRUE (0002ms, 0226ms total)
T245C 000:482 JLINK_ReadReg(R15 (PC))  returns 0x20000000 (0000ms, 0224ms total)
T245C 000:482 JLINK_ClrBPEx(BPHandle = 0x00000004)  returns 0x00 (0001ms, 0225ms total)
T245C 000:483 JLINK_ReadReg(R0)  returns 0x00000000 (0000ms, 0225ms total)
T245C 000:484 JLINK_WriteMem(0x20000164, 0x0400 Bytes, ...) - Data: A8 0E 00 20 45 01 00 08 4D 08 00 08 4F 08 00 08 ... -- CPU_WriteMem(1024 bytes @ 0x20000164)  returns 0x400 (0004ms, 0229ms total)
T245C 000:488 JLINK_WriteReg(R0, 0x08000000)  returns 0x00 (0000ms, 0229ms total)
T245C 000:488 JLINK_WriteReg(R1, 0x00000400)  returns 0x00 (0000ms, 0229ms total)
T245C 000:488 JLINK_WriteReg(R2, 0x20000164)  returns 0x00 (0000ms, 0229ms total)
T245C 000:488 JLINK_WriteReg(R3, 0x00000000)  returns 0x00 (0000ms, 0229ms total)
T245C 000:488 JLINK_WriteReg(R4, 0x00000000)  returns 0x00 (0000ms, 0229ms total)
T245C 000:488 JLINK_WriteReg(R5, 0x00000000)  returns 0x00 (0000ms, 0229ms total)
T245C 000:488 JLINK_WriteReg(R6, 0x00000000)  returns 0x00 (0000ms, 0229ms total)
T245C 000:488 JLINK_WriteReg(R7, 0x00000000)  returns 0x00 (0000ms, 0229ms total)
T245C 000:488 JLINK_WriteReg(R8, 0x00000000)  returns 0x00 (0000ms, 0229ms total)
T245C 000:488 JLINK_WriteReg(R9, 0x20000160)  returns 0x00 (0000ms, 0229ms total)
T245C 000:488 JLINK_WriteReg(R10, 0x00000000)  returns 0x00 (0000ms, 0229ms total)
T245C 000:488 JLINK_WriteReg(R11, 0x00000000)  returns 0x00 (0000ms, 0229ms total)
T245C 000:488 JLINK_WriteReg(R12, 0x00000000)  returns 0x00 (0000ms, 0229ms total)
T245C 000:488 JLINK_WriteReg(R13 (SP), 0x20000800)  returns 0x00 (0000ms, 0229ms total)
T245C 000:488 JLINK_WriteReg(R14, 0x20000001)  returns 0x00 (0000ms, 0229ms total)
T245C 000:488 JLINK_WriteReg(R15 (PC), 0x200000F4)  returns 0x00 (0000ms, 0229ms total)
T245C 000:488 JLINK_WriteReg(XPSR, 0x01000000)  returns 0x00 (0000ms, 0229ms total)
T245C 000:488 JLINK_WriteReg(MSP, 0x20000800)  returns 0x00 (0000ms, 0229ms total)
T245C 000:488 JLINK_WriteReg(PSP, 0x20000800)  returns 0x00 (0000ms, 0229ms total)
T245C 000:488 JLINK_WriteReg(CFBP, 0x00000000)  returns 0x00 (0000ms, 0229ms total)
T245C 000:488 JLINK_SetBPEx(Addr = 0x20000000, Type = 0xFFFFFFF2)  returns 0x00000005 (0000ms, 0229ms total)
T245C 000:488 JLINK_Go() -- CPU_ReadMem(4 bytes @ 0xE0001000) (0001ms, 0230ms total)
T245C 000:489 JLINK_IsHalted()  returns FALSE (0001ms, 0231ms total)
T245C 000:500 JLINK_IsHalted()  returns FALSE (0000ms, 0230ms total)
T245C 000:502 JLINK_IsHalted()  returns FALSE (0000ms, 0230ms total)
T245C 000:504 JLINK_IsHalted()  returns FALSE (0000ms, 0230ms total)
T245C 000:506 JLINK_IsHalted()  returns FALSE (0000ms, 0230ms total)
T245C 000:508 JLINK_IsHalted()  returns FALSE (0000ms, 0230ms total)
T245C 000:510 JLINK_IsHalted()  returns FALSE (0000ms, 0230ms total)
T245C 000:512 JLINK_IsHalted()  returns FALSE (0000ms, 0230ms total)
T245C 000:514 JLINK_IsHalted()  returns FALSE (0000ms, 0230ms total)
T245C 000:516 JLINK_IsHalted()  returns FALSE (0000ms, 0230ms total)
T245C 000:518 JLINK_IsHalted()  returns FALSE (0000ms, 0230ms total)
T245C 000:520 JLINK_IsHalted()  returns FALSE (0000ms, 0230ms total)
T245C 000:522 JLINK_IsHalted() -- CPU_ReadMem(2 bytes @ 0x20000000)  returns TRUE (0002ms, 0232ms total)
T245C 000:524 JLINK_ReadReg(R15 (PC))  returns 0x20000000 (0000ms, 0230ms total)
T245C 000:524 JLINK_ClrBPEx(BPHandle = 0x00000005)  returns 0x00 (0000ms, 0230ms total)
T245C 000:524 JLINK_ReadReg(R0)  returns 0x00000000 (0000ms, 0230ms total)
T245C 000:524 JLINK_WriteMem(0x20000164, 0x0400 Bytes, ...) - Data: 08 70 EE E1 8B 48 81 49 0A 68 02 60 89 88 81 80 ... -- CPU_WriteMem(1024 bytes @ 0x20000164)  returns 0x400 (0004ms, 0234ms total)
T245C 000:528 JLINK_WriteReg(R0, 0x08000400)  returns 0x00 (0000ms, 0234ms total)
T245C 000:528 JLINK_WriteReg(R1, 0x00000400)  returns 0x00 (0000ms, 0234ms total)
T245C 000:528 JLINK_WriteReg(R2, 0x20000164)  returns 0x00 (0000ms, 0234ms total)
T245C 000:528 JLINK_WriteReg(R3, 0x00000000)  returns 0x00 (0000ms, 0234ms total)
T245C 000:528 JLINK_WriteReg(R4, 0x00000000)  returns 0x00 (0000ms, 0234ms total)
T245C 000:528 JLINK_WriteReg(R5, 0x00000000)  returns 0x00 (0000ms, 0234ms total)
T245C 000:528 JLINK_WriteReg(R6, 0x00000000)  returns 0x00 (0000ms, 0234ms total)
T245C 000:528 JLINK_WriteReg(R7, 0x00000000)  returns 0x00 (0000ms, 0234ms total)
T245C 000:528 JLINK_WriteReg(R8, 0x00000000)  returns 0x00 (0000ms, 0234ms total)
T245C 000:528 JLINK_WriteReg(R9, 0x20000160)  returns 0x00 (0000ms, 0234ms total)
T245C 000:528 JLINK_WriteReg(R10, 0x00000000)  returns 0x00 (0000ms, 0234ms total)
T245C 000:528 JLINK_WriteReg(R11, 0x00000000)  returns 0x00 (0000ms, 0234ms total)
T245C 000:528 JLINK_WriteReg(R12, 0x00000000)  returns 0x00 (0000ms, 0234ms total)
T245C 000:528 JLINK_WriteReg(R13 (SP), 0x20000800)  returns 0x00 (0000ms, 0234ms total)
T245C 000:528 JLINK_WriteReg(R14, 0x20000001)  returns 0x00 (0000ms, 0234ms total)
T245C 000:528 JLINK_WriteReg(R15 (PC), 0x200000F4)  returns 0x00 (0000ms, 0234ms total)
T245C 000:528 JLINK_WriteReg(XPSR, 0x01000000)  returns 0x00 (0000ms, 0234ms total)
T245C 000:528 JLINK_WriteReg(MSP, 0x20000800)  returns 0x00 (0000ms, 0234ms total)
T245C 000:528 JLINK_WriteReg(PSP, 0x20000800)  returns 0x00 (0000ms, 0234ms total)
T245C 000:528 JLINK_WriteReg(CFBP, 0x00000000)  returns 0x00 (0000ms, 0234ms total)
T245C 000:528 JLINK_SetBPEx(Addr = 0x20000000, Type = 0xFFFFFFF2)  returns 0x00000006 (0000ms, 0234ms total)
T245C 000:528 JLINK_Go() -- CPU_ReadMem(4 bytes @ 0xE0001000) (0002ms, 0236ms total)
T245C 000:530 JLINK_IsHalted()  returns FALSE (0000ms, 0236ms total)
T245C 000:536 JLINK_IsHalted()  returns FALSE (0000ms, 0236ms total)
T245C 000:538 JLINK_IsHalted()  returns FALSE (0000ms, 0236ms total)
T245C 000:540 JLINK_IsHalted()  returns FALSE (0000ms, 0236ms total)
T245C 000:542 JLINK_IsHalted()  returns FALSE (0000ms, 0236ms total)
T245C 000:544 JLINK_IsHalted()  returns FALSE (0000ms, 0236ms total)
T245C 000:546 JLINK_IsHalted()  returns FALSE (0000ms, 0236ms total)
T245C 000:548 JLINK_IsHalted()  returns FALSE (0000ms, 0236ms total)
T245C 000:550 JLINK_IsHalted()  returns FALSE (0000ms, 0236ms total)
T245C 000:552 JLINK_IsHalted()  returns FALSE (0000ms, 0236ms total)
T245C 000:554 JLINK_IsHalted()  returns FALSE (0000ms, 0236ms total)
T245C 000:556 JLINK_IsHalted()  returns FALSE (0000ms, 0236ms total)
T245C 000:558 JLINK_IsHalted()  returns FALSE (0000ms, 0236ms total)
T245C 000:560 JLINK_IsHalted()  returns FALSE (0000ms, 0236ms total)
T245C 000:562 JLINK_IsHalted() -- CPU_ReadMem(2 bytes @ 0x20000000)  returns TRUE (0001ms, 0237ms total)
T245C 000:563 JLINK_ReadReg(R15 (PC))  returns 0x20000000 (0001ms, 0237ms total)
T245C 000:564 JLINK_ClrBPEx(BPHandle = 0x00000006)  returns 0x00 (0000ms, 0237ms total)
T245C 000:564 JLINK_ReadReg(R0)  returns 0x00000000 (0000ms, 0237ms total)
T245C 000:565 JLINK_WriteMem(0x20000164, 0x0400 Bytes, ...) - Data: 1B 1D 1A 80 70 47 00 00 EC 00 00 20 4D 00 00 20 ... -- CPU_WriteMem(1024 bytes @ 0x20000164)  returns 0x400 (0004ms, 0241ms total)
T245C 000:569 JLINK_WriteReg(R0, 0x08000800)  returns 0x00 (0000ms, 0241ms total)
T245C 000:569 JLINK_WriteReg(R1, 0x00000400)  returns 0x00 (0000ms, 0241ms total)
T245C 000:569 JLINK_WriteReg(R2, 0x20000164)  returns 0x00 (0000ms, 0241ms total)
T245C 000:569 JLINK_WriteReg(R3, 0x00000000)  returns 0x00 (0000ms, 0241ms total)
T245C 000:569 JLINK_WriteReg(R4, 0x00000000)  returns 0x00 (0000ms, 0241ms total)
T245C 000:569 JLINK_WriteReg(R5, 0x00000000)  returns 0x00 (0000ms, 0241ms total)
T245C 000:569 JLINK_WriteReg(R6, 0x00000000)  returns 0x00 (0000ms, 0241ms total)
T245C 000:569 JLINK_WriteReg(R7, 0x00000000)  returns 0x00 (0000ms, 0241ms total)
T245C 000:569 JLINK_WriteReg(R8, 0x00000000)  returns 0x00 (0000ms, 0241ms total)
T245C 000:569 JLINK_WriteReg(R9, 0x20000160)  returns 0x00 (0000ms, 0241ms total)
T245C 000:569 JLINK_WriteReg(R10, 0x00000000)  returns 0x00 (0000ms, 0241ms total)
T245C 000:569 JLINK_WriteReg(R11, 0x00000000)  returns 0x00 (0000ms, 0241ms total)
T245C 000:569 JLINK_WriteReg(R12, 0x00000000)  returns 0x00 (0000ms, 0241ms total)
T245C 000:569 JLINK_WriteReg(R13 (SP), 0x20000800)  returns 0x00 (0000ms, 0241ms total)
T245C 000:569 JLINK_WriteReg(R14, 0x20000001)  returns 0x00 (0000ms, 0241ms total)
T245C 000:569 JLINK_WriteReg(R15 (PC), 0x200000F4)  returns 0x00 (0000ms, 0241ms total)
T245C 000:569 JLINK_WriteReg(XPSR, 0x01000000)  returns 0x00 (0000ms, 0241ms total)
T245C 000:569 JLINK_WriteReg(MSP, 0x20000800)  returns 0x00 (0000ms, 0241ms total)
T245C 000:569 JLINK_WriteReg(PSP, 0x20000800)  returns 0x00 (0000ms, 0241ms total)
T245C 000:569 JLINK_WriteReg(CFBP, 0x00000000)  returns 0x00 (0000ms, 0241ms total)
T245C 000:569 JLINK_SetBPEx(Addr = 0x20000000, Type = 0xFFFFFFF2)  returns 0x00000007 (0000ms, 0241ms total)
T245C 000:569 JLINK_Go() -- CPU_ReadMem(4 bytes @ 0xE0001000) (0001ms, 0242ms total)
T245C 000:570 JLINK_IsHalted()  returns FALSE (0000ms, 0242ms total)
T245C 000:572 JLINK_IsHalted()  returns FALSE (0000ms, 0242ms total)
T245C 000:574 JLINK_IsHalted()  returns FALSE (0000ms, 0242ms total)
T245C 000:576 JLINK_IsHalted()  returns FALSE (0000ms, 0242ms total)
T245C 000:578 JLINK_IsHalted()  returns FALSE (0000ms, 0242ms total)
T245C 000:580 JLINK_IsHalted()  returns FALSE (0000ms, 0242ms total)
T245C 000:582 JLINK_IsHalted()  returns FALSE (0000ms, 0242ms total)
T245C 000:584 JLINK_IsHalted()  returns FALSE (0000ms, 0242ms total)
T245C 000:586 JLINK_IsHalted()  returns FALSE (0000ms, 0242ms total)
T245C 000:588 JLINK_IsHalted()  returns FALSE (0000ms, 0242ms total)
T245C 000:590 JLINK_IsHalted()  returns FALSE (0000ms, 0242ms total)
T245C 000:592 JLINK_IsHalted()  returns FALSE (0000ms, 0242ms total)
T245C 000:594 JLINK_IsHalted()  returns FALSE (0000ms, 0242ms total)
T245C 000:596 JLINK_IsHalted()  returns FALSE (0000ms, 0242ms total)
T245C 000:598 JLINK_IsHalted()  returns FALSE (0000ms, 0242ms total)
T245C 000:600 JLINK_IsHalted()  returns FALSE (0000ms, 0242ms total)
T245C 000:602 JLINK_IsHalted() -- CPU_ReadMem(2 bytes @ 0x20000000)  returns TRUE (0002ms, 0244ms total)
T245C 000:604 JLINK_ReadReg(R15 (PC))  returns 0x20000000 (0000ms, 0242ms total)
T245C 000:604 JLINK_ClrBPEx(BPHandle = 0x00000007)  returns 0x00 (0000ms, 0242ms total)
T245C 000:604 JLINK_ReadReg(R0)  returns 0x00000000 (0000ms, 0242ms total)
T245C 000:604 JLINK_WriteMem(0x20000164, 0x0400 Bytes, ...) - Data: 00 24 00 26 28 46 06 F0 33 FD 86 B2 00 BF 0E E0 ... -- CPU_WriteMem(1024 bytes @ 0x20000164)  returns 0x400 (0004ms, 0246ms total)
T245C 000:608 JLINK_WriteReg(R0, 0x08000C00)  returns 0x00 (0000ms, 0246ms total)
T245C 000:608 JLINK_WriteReg(R1, 0x00000400)  returns 0x00 (0000ms, 0246ms total)
T245C 000:608 JLINK_WriteReg(R2, 0x20000164)  returns 0x00 (0000ms, 0246ms total)
T245C 000:608 JLINK_WriteReg(R3, 0x00000000)  returns 0x00 (0000ms, 0246ms total)
T245C 000:608 JLINK_WriteReg(R4, 0x00000000)  returns 0x00 (0000ms, 0246ms total)
T245C 000:608 JLINK_WriteReg(R5, 0x00000000)  returns 0x00 (0000ms, 0246ms total)
T245C 000:608 JLINK_WriteReg(R6, 0x00000000)  returns 0x00 (0000ms, 0246ms total)
T245C 000:608 JLINK_WriteReg(R7, 0x00000000)  returns 0x00 (0000ms, 0246ms total)
T245C 000:608 JLINK_WriteReg(R8, 0x00000000)  returns 0x00 (0000ms, 0246ms total)
T245C 000:608 JLINK_WriteReg(R9, 0x20000160)  returns 0x00 (0000ms, 0246ms total)
T245C 000:608 JLINK_WriteReg(R10, 0x00000000)  returns 0x00 (0000ms, 0246ms total)
T245C 000:608 JLINK_WriteReg(R11, 0x00000000)  returns 0x00 (0000ms, 0246ms total)
T245C 000:608 JLINK_WriteReg(R12, 0x00000000)  returns 0x00 (0000ms, 0246ms total)
T245C 000:608 JLINK_WriteReg(R13 (SP), 0x20000800)  returns 0x00 (0000ms, 0246ms total)
T245C 000:608 JLINK_WriteReg(R14, 0x20000001)  returns 0x00 (0000ms, 0246ms total)
T245C 000:608 JLINK_WriteReg(R15 (PC), 0x200000F4)  returns 0x00 (0000ms, 0246ms total)
T245C 000:608 JLINK_WriteReg(XPSR, 0x01000000)  returns 0x00 (0000ms, 0246ms total)
T245C 000:608 JLINK_WriteReg(MSP, 0x20000800)  returns 0x00 (0000ms, 0246ms total)
T245C 000:608 JLINK_WriteReg(PSP, 0x20000800)  returns 0x00 (0000ms, 0246ms total)
T245C 000:608 JLINK_WriteReg(CFBP, 0x00000000)  returns 0x00 (0000ms, 0246ms total)
T245C 000:608 JLINK_SetBPEx(Addr = 0x20000000, Type = 0xFFFFFFF2)  returns 0x00000008 (0000ms, 0246ms total)
T245C 000:608 JLINK_Go() -- CPU_ReadMem(4 bytes @ 0xE0001000) (0001ms, 0247ms total)
T245C 000:609 JLINK_IsHalted()  returns FALSE (0001ms, 0248ms total)
T245C 000:612 JLINK_IsHalted()  returns FALSE (0000ms, 0247ms total)
T245C 000:614 JLINK_IsHalted()  returns FALSE (0000ms, 0247ms total)
T245C 000:616 JLINK_IsHalted()  returns FALSE (0000ms, 0247ms total)
T245C 000:618 JLINK_IsHalted()  returns FALSE (0000ms, 0247ms total)
T245C 000:620 JLINK_IsHalted()  returns FALSE (0000ms, 0247ms total)
T245C 000:622 JLINK_IsHalted()  returns FALSE (0000ms, 0247ms total)
T245C 000:624 JLINK_IsHalted()  returns FALSE (0000ms, 0247ms total)
T245C 000:626 JLINK_IsHalted()  returns FALSE (0000ms, 0247ms total)
T245C 000:628 JLINK_IsHalted()  returns FALSE (0000ms, 0247ms total)
T245C 000:630 JLINK_IsHalted()  returns FALSE (0000ms, 0247ms total)
T245C 000:632 JLINK_IsHalted()  returns FALSE (0000ms, 0247ms total)
T245C 000:634 JLINK_IsHalted()  returns FALSE (0000ms, 0247ms total)
T245C 000:636 JLINK_IsHalted()  returns FALSE (0000ms, 0247ms total)
T245C 000:638 JLINK_IsHalted()  returns FALSE (0000ms, 0247ms total)
T245C 000:640 JLINK_IsHalted()  returns FALSE (0000ms, 0247ms total)
T245C 000:644 JLINK_IsHalted() -- CPU_ReadMem(2 bytes @ 0x20000000)  returns TRUE (0002ms, 0249ms total)
T245C 000:646 JLINK_ReadReg(R15 (PC))  returns 0x20000000 (0000ms, 0247ms total)
T245C 000:646 JLINK_ClrBPEx(BPHandle = 0x00000008)  returns 0x00 (0000ms, 0247ms total)
T245C 000:646 JLINK_ReadReg(R0)  returns 0x00000000 (0000ms, 0247ms total)
T245C 000:646 JLINK_WriteMem(0x20000164, 0x0400 Bytes, ...) - Data: 10 BD 38 B5 00 20 00 90 00 24 00 25 00 BF 31 20 ... -- CPU_WriteMem(1024 bytes @ 0x20000164)  returns 0x400 (0004ms, 0251ms total)
T245C 000:650 JLINK_WriteReg(R0, 0x08001000)  returns 0x00 (0000ms, 0251ms total)
T245C 000:650 JLINK_WriteReg(R1, 0x00000400)  returns 0x00 (0000ms, 0251ms total)
T245C 000:650 JLINK_WriteReg(R2, 0x20000164)  returns 0x00 (0000ms, 0251ms total)
T245C 000:650 JLINK_WriteReg(R3, 0x00000000)  returns 0x00 (0000ms, 0251ms total)
T245C 000:650 JLINK_WriteReg(R4, 0x00000000)  returns 0x00 (0000ms, 0251ms total)
T245C 000:650 JLINK_WriteReg(R5, 0x00000000)  returns 0x00 (0000ms, 0251ms total)
T245C 000:650 JLINK_WriteReg(R6, 0x00000000)  returns 0x00 (0000ms, 0251ms total)
T245C 000:650 JLINK_WriteReg(R7, 0x00000000)  returns 0x00 (0000ms, 0251ms total)
T245C 000:650 JLINK_WriteReg(R8, 0x00000000)  returns 0x00 (0000ms, 0251ms total)
T245C 000:650 JLINK_WriteReg(R9, 0x20000160)  returns 0x00 (0000ms, 0251ms total)
T245C 000:650 JLINK_WriteReg(R10, 0x00000000)  returns 0x00 (0000ms, 0251ms total)
T245C 000:650 JLINK_WriteReg(R11, 0x00000000)  returns 0x00 (0000ms, 0251ms total)
T245C 000:650 JLINK_WriteReg(R12, 0x00000000)  returns 0x00 (0000ms, 0251ms total)
T245C 000:650 JLINK_WriteReg(R13 (SP), 0x20000800)  returns 0x00 (0000ms, 0251ms total)
T245C 000:650 JLINK_WriteReg(R14, 0x20000001)  returns 0x00 (0000ms, 0251ms total)
T245C 000:650 JLINK_WriteReg(R15 (PC), 0x200000F4)  returns 0x00 (0000ms, 0251ms total)
T245C 000:650 JLINK_WriteReg(XPSR, 0x01000000)  returns 0x00 (0000ms, 0251ms total)
T245C 000:650 JLINK_WriteReg(MSP, 0x20000800)  returns 0x00 (0000ms, 0251ms total)
T245C 000:650 JLINK_WriteReg(PSP, 0x20000800)  returns 0x00 (0000ms, 0251ms total)
T245C 000:650 JLINK_WriteReg(CFBP, 0x00000000)  returns 0x00 (0000ms, 0251ms total)
T245C 000:650 JLINK_SetBPEx(Addr = 0x20000000, Type = 0xFFFFFFF2)  returns 0x00000009 (0000ms, 0251ms total)
T245C 000:650 JLINK_Go() -- CPU_ReadMem(4 bytes @ 0xE0001000) (0002ms, 0253ms total)
T245C 000:652 JLINK_IsHalted()  returns FALSE (0000ms, 0253ms total)
T245C 000:654 JLINK_IsHalted()  returns FALSE (0000ms, 0253ms total)
T245C 000:656 JLINK_IsHalted()  returns FALSE (0000ms, 0253ms total)
T245C 000:658 JLINK_IsHalted()  returns FALSE (0000ms, 0253ms total)
T245C 000:660 JLINK_IsHalted()  returns FALSE (0000ms, 0253ms total)
T245C 000:662 JLINK_IsHalted()  returns FALSE (0000ms, 0253ms total)
T245C 000:664 JLINK_IsHalted()  returns FALSE (0000ms, 0253ms total)
T245C 000:666 JLINK_IsHalted()  returns FALSE (0000ms, 0253ms total)
T245C 000:668 JLINK_IsHalted()  returns FALSE (0000ms, 0253ms total)
T245C 000:670 JLINK_IsHalted()  returns FALSE (0000ms, 0253ms total)
T245C 000:672 JLINK_IsHalted()  returns FALSE (0000ms, 0253ms total)
T245C 000:674 JLINK_IsHalted()  returns FALSE (0000ms, 0253ms total)
T245C 000:676 JLINK_IsHalted()  returns FALSE (0000ms, 0253ms total)
T245C 000:678 JLINK_IsHalted()  returns FALSE (0000ms, 0253ms total)
T245C 000:680 JLINK_IsHalted()  returns FALSE (0000ms, 0253ms total)
T245C 000:682 JLINK_IsHalted()  returns FALSE (0000ms, 0253ms total)
T245C 000:684 JLINK_IsHalted() -- CPU_ReadMem(2 bytes @ 0x20000000)  returns TRUE (0002ms, 0255ms total)
T245C 000:686 JLINK_ReadReg(R15 (PC))  returns 0x20000000 (0000ms, 0253ms total)
T245C 000:686 JLINK_ClrBPEx(BPHandle = 0x00000009)  returns 0x00 (0000ms, 0253ms total)
T245C 000:686 JLINK_ReadReg(R0)  returns 0x00000000 (0000ms, 0253ms total)
T245C 000:688 JLINK_WriteMem(0x20000164, 0x0400 Bytes, ...) - Data: 0F 0C 0C FA 03 F7 BC 43 05 FA 03 FC 4C EA 04 04 ... -- CPU_WriteMem(1024 bytes @ 0x20000164)  returns 0x400 (0003ms, 0256ms total)
T245C 000:691 JLINK_WriteReg(R0, 0x08001400)  returns 0x00 (0000ms, 0256ms total)
T245C 000:691 JLINK_WriteReg(R1, 0x00000400)  returns 0x00 (0000ms, 0256ms total)
T245C 000:691 JLINK_WriteReg(R2, 0x20000164)  returns 0x00 (0000ms, 0256ms total)
T245C 000:691 JLINK_WriteReg(R3, 0x00000000)  returns 0x00 (0000ms, 0256ms total)
T245C 000:691 JLINK_WriteReg(R4, 0x00000000)  returns 0x00 (0000ms, 0256ms total)
T245C 000:691 JLINK_WriteReg(R5, 0x00000000)  returns 0x00 (0000ms, 0256ms total)
T245C 000:691 JLINK_WriteReg(R6, 0x00000000)  returns 0x00 (0000ms, 0256ms total)
T245C 000:691 JLINK_WriteReg(R7, 0x00000000)  returns 0x00 (0001ms, 0257ms total)
T245C 000:692 JLINK_WriteReg(R8, 0x00000000)  returns 0x00 (0000ms, 0257ms total)
T245C 000:692 JLINK_WriteReg(R9, 0x20000160)  returns 0x00 (0000ms, 0257ms total)
T245C 000:692 JLINK_WriteReg(R10, 0x00000000)  returns 0x00 (0000ms, 0257ms total)
T245C 000:692 JLINK_WriteReg(R11, 0x00000000)  returns 0x00 (0000ms, 0257ms total)
T245C 000:692 JLINK_WriteReg(R12, 0x00000000)  returns 0x00 (0000ms, 0257ms total)
T245C 000:692 JLINK_WriteReg(R13 (SP), 0x20000800)  returns 0x00 (0000ms, 0257ms total)
T245C 000:692 JLINK_WriteReg(R14, 0x20000001)  returns 0x00 (0000ms, 0257ms total)
T245C 000:692 JLINK_WriteReg(R15 (PC), 0x200000F4)  returns 0x00 (0000ms, 0257ms total)
T245C 000:692 JLINK_WriteReg(XPSR, 0x01000000)  returns 0x00 (0000ms, 0257ms total)
T245C 000:692 JLINK_WriteReg(MSP, 0x20000800)  returns 0x00 (0000ms, 0257ms total)
T245C 000:692 JLINK_WriteReg(PSP, 0x20000800)  returns 0x00 (0000ms, 0257ms total)
T245C 000:692 JLINK_WriteReg(CFBP, 0x00000000)  returns 0x00 (0000ms, 0257ms total)
T245C 000:692 JLINK_SetBPEx(Addr = 0x20000000, Type = 0xFFFFFFF2)  returns 0x0000000A (0000ms, 0257ms total)
T245C 000:692 JLINK_Go() -- CPU_ReadMem(4 bytes @ 0xE0001000) (0001ms, 0258ms total)
T245C 000:693 JLINK_IsHalted()  returns FALSE (0000ms, 0258ms total)
T245C 000:695 JLINK_IsHalted()  returns FALSE (0000ms, 0258ms total)
T245C 000:697 JLINK_IsHalted()  returns FALSE (0000ms, 0258ms total)
T245C 000:699 JLINK_IsHalted()  returns FALSE (0000ms, 0258ms total)
T245C 000:701 JLINK_IsHalted()  returns FALSE (0000ms, 0258ms total)
T245C 000:703 JLINK_IsHalted()  returns FALSE (0000ms, 0258ms total)
T245C 000:705 JLINK_IsHalted()  returns FALSE (0000ms, 0258ms total)
T245C 000:707 JLINK_IsHalted()  returns FALSE (0000ms, 0258ms total)
T245C 000:709 JLINK_IsHalted()  returns FALSE (0000ms, 0258ms total)
T245C 000:711 JLINK_IsHalted()  returns FALSE (0000ms, 0258ms total)
T245C 000:713 JLINK_IsHalted()  returns FALSE (0000ms, 0258ms total)
T245C 000:715 JLINK_IsHalted()  returns FALSE (0000ms, 0258ms total)
T245C 000:717 JLINK_IsHalted()  returns FALSE (0000ms, 0258ms total)
T245C 000:719 JLINK_IsHalted()  returns FALSE (0000ms, 0258ms total)
T245C 000:721 JLINK_IsHalted()  returns FALSE (0000ms, 0258ms total)
T245C 000:723 JLINK_IsHalted()  returns FALSE (0000ms, 0258ms total)
T245C 000:725 JLINK_IsHalted() -- CPU_ReadMem(2 bytes @ 0x20000000)  returns TRUE (0001ms, 0259ms total)
T245C 000:726 JLINK_ReadReg(R15 (PC))  returns 0x20000000 (0000ms, 0258ms total)
T245C 000:727 JLINK_ClrBPEx(BPHandle = 0x0000000A)  returns 0x00 (0000ms, 0259ms total)
T245C 000:727 JLINK_ReadReg(R0)  returns 0x00000000 (0000ms, 0259ms total)
T245C 000:727 JLINK_WriteMem(0x20000164, 0x0400 Bytes, ...) - Data: 00 26 00 25 00 20 40 F6 6A 17 B9 42 00 D1 00 BF ... -- CPU_WriteMem(1024 bytes @ 0x20000164)  returns 0x400 (0004ms, 0263ms total)
T245C 000:731 JLINK_WriteReg(R0, 0x08001800)  returns 0x00 (0000ms, 0263ms total)
T245C 000:731 JLINK_WriteReg(R1, 0x00000400)  returns 0x00 (0000ms, 0263ms total)
T245C 000:731 JLINK_WriteReg(R2, 0x20000164)  returns 0x00 (0000ms, 0263ms total)
T245C 000:731 JLINK_WriteReg(R3, 0x00000000)  returns 0x00 (0000ms, 0263ms total)
T245C 000:731 JLINK_WriteReg(R4, 0x00000000)  returns 0x00 (0000ms, 0263ms total)
T245C 000:731 JLINK_WriteReg(R5, 0x00000000)  returns 0x00 (0000ms, 0263ms total)
T245C 000:731 JLINK_WriteReg(R6, 0x00000000)  returns 0x00 (0000ms, 0263ms total)
T245C 000:731 JLINK_WriteReg(R7, 0x00000000)  returns 0x00 (0000ms, 0263ms total)
T245C 000:731 JLINK_WriteReg(R8, 0x00000000)  returns 0x00 (0000ms, 0263ms total)
T245C 000:731 JLINK_WriteReg(R9, 0x20000160)  returns 0x00 (0000ms, 0263ms total)
T245C 000:731 JLINK_WriteReg(R10, 0x00000000)  returns 0x00 (0000ms, 0263ms total)
T245C 000:731 JLINK_WriteReg(R11, 0x00000000)  returns 0x00 (0000ms, 0263ms total)
T245C 000:731 JLINK_WriteReg(R12, 0x00000000)  returns 0x00 (0000ms, 0263ms total)
T245C 000:731 JLINK_WriteReg(R13 (SP), 0x20000800)  returns 0x00 (0000ms, 0263ms total)
T245C 000:731 JLINK_WriteReg(R14, 0x20000001)  returns 0x00 (0000ms, 0263ms total)
T245C 000:731 JLINK_WriteReg(R15 (PC), 0x200000F4)  returns 0x00 (0000ms, 0263ms total)
T245C 000:731 JLINK_WriteReg(XPSR, 0x01000000)  returns 0x00 (0000ms, 0263ms total)
T245C 000:731 JLINK_WriteReg(MSP, 0x20000800)  returns 0x00 (0000ms, 0263ms total)
T245C 000:731 JLINK_WriteReg(PSP, 0x20000800)  returns 0x00 (0000ms, 0263ms total)
T245C 000:731 JLINK_WriteReg(CFBP, 0x00000000)  returns 0x00 (0000ms, 0263ms total)
T245C 000:732 JLINK_SetBPEx(Addr = 0x20000000, Type = 0xFFFFFFF2)  returns 0x0000000B (0000ms, 0263ms total)
T245C 000:732 JLINK_Go() -- CPU_ReadMem(4 bytes @ 0xE0001000) (0001ms, 0264ms total)
T245C 000:733 JLINK_IsHalted()  returns FALSE (0000ms, 0264ms total)
T245C 000:735 JLINK_IsHalted()  returns FALSE (0000ms, 0264ms total)
T245C 000:737 JLINK_IsHalted()  returns FALSE (0000ms, 0264ms total)
T245C 000:739 JLINK_IsHalted()  returns FALSE (0000ms, 0264ms total)
T245C 000:741 JLINK_IsHalted()  returns FALSE (0000ms, 0264ms total)
T245C 000:743 JLINK_IsHalted()  returns FALSE (0000ms, 0264ms total)
T245C 000:745 JLINK_IsHalted()  returns FALSE (0000ms, 0264ms total)
T245C 000:747 JLINK_IsHalted()  returns FALSE (0000ms, 0264ms total)
T245C 000:749 JLINK_IsHalted()  returns FALSE (0000ms, 0264ms total)
T245C 000:751 JLINK_IsHalted()  returns FALSE (0000ms, 0264ms total)
T245C 000:753 JLINK_IsHalted()  returns FALSE (0000ms, 0264ms total)
T245C 000:757 JLINK_IsHalted()  returns FALSE (0000ms, 0264ms total)
T245C 000:759 JLINK_IsHalted()  returns FALSE (0000ms, 0264ms total)
T245C 000:761 JLINK_IsHalted()  returns FALSE (0000ms, 0264ms total)
T245C 000:763 JLINK_IsHalted()  returns FALSE (0000ms, 0264ms total)
T245C 000:765 JLINK_IsHalted() -- CPU_ReadMem(2 bytes @ 0x20000000)  returns TRUE (0001ms, 0265ms total)
T245C 000:766 JLINK_ReadReg(R15 (PC))  returns 0x20000000 (0000ms, 0264ms total)
T245C 000:766 JLINK_ClrBPEx(BPHandle = 0x0000000B)  returns 0x00 (0000ms, 0264ms total)
T245C 000:766 JLINK_ReadReg(R0)  returns 0x00000000 (0001ms, 0265ms total)
T245C 000:767 JLINK_WriteMem(0x20000164, 0x0400 Bytes, ...) - Data: FF F7 28 FB 63 E0 D0 48 84 42 09 D1 01 21 08 05 ... -- CPU_WriteMem(1024 bytes @ 0x20000164)  returns 0x400 (0004ms, 0269ms total)
T245C 000:771 JLINK_WriteReg(R0, 0x08001C00)  returns 0x00 (0000ms, 0269ms total)
T245C 000:771 JLINK_WriteReg(R1, 0x00000400)  returns 0x00 (0000ms, 0269ms total)
T245C 000:771 JLINK_WriteReg(R2, 0x20000164)  returns 0x00 (0000ms, 0269ms total)
T245C 000:771 JLINK_WriteReg(R3, 0x00000000)  returns 0x00 (0000ms, 0269ms total)
T245C 000:771 JLINK_WriteReg(R4, 0x00000000)  returns 0x00 (0000ms, 0269ms total)
T245C 000:771 JLINK_WriteReg(R5, 0x00000000)  returns 0x00 (0000ms, 0269ms total)
T245C 000:771 JLINK_WriteReg(R6, 0x00000000)  returns 0x00 (0000ms, 0269ms total)
T245C 000:771 JLINK_WriteReg(R7, 0x00000000)  returns 0x00 (0000ms, 0269ms total)
T245C 000:771 JLINK_WriteReg(R8, 0x00000000)  returns 0x00 (0000ms, 0269ms total)
T245C 000:771 JLINK_WriteReg(R9, 0x20000160)  returns 0x00 (0000ms, 0269ms total)
T245C 000:771 JLINK_WriteReg(R10, 0x00000000)  returns 0x00 (0000ms, 0269ms total)
T245C 000:771 JLINK_WriteReg(R11, 0x00000000)  returns 0x00 (0000ms, 0269ms total)
T245C 000:771 JLINK_WriteReg(R12, 0x00000000)  returns 0x00 (0000ms, 0269ms total)
T245C 000:771 JLINK_WriteReg(R13 (SP), 0x20000800)  returns 0x00 (0000ms, 0269ms total)
T245C 000:771 JLINK_WriteReg(R14, 0x20000001)  returns 0x00 (0000ms, 0269ms total)
T245C 000:771 JLINK_WriteReg(R15 (PC), 0x200000F4)  returns 0x00 (0000ms, 0269ms total)
T245C 000:771 JLINK_WriteReg(XPSR, 0x01000000)  returns 0x00 (0000ms, 0269ms total)
T245C 000:771 JLINK_WriteReg(MSP, 0x20000800)  returns 0x00 (0000ms, 0269ms total)
T245C 000:771 JLINK_WriteReg(PSP, 0x20000800)  returns 0x00 (0001ms, 0270ms total)
T245C 000:772 JLINK_WriteReg(CFBP, 0x00000000)  returns 0x00 (0000ms, 0270ms total)
T245C 000:772 JLINK_SetBPEx(Addr = 0x20000000, Type = 0xFFFFFFF2)  returns 0x0000000C (0000ms, 0270ms total)
T245C 000:772 JLINK_Go() -- CPU_ReadMem(4 bytes @ 0xE0001000) (0001ms, 0271ms total)
T245C 000:773 JLINK_IsHalted()  returns FALSE (0000ms, 0271ms total)
T245C 000:775 JLINK_IsHalted()  returns FALSE (0000ms, 0271ms total)
T245C 000:777 JLINK_IsHalted()  returns FALSE (0000ms, 0271ms total)
T245C 000:779 JLINK_IsHalted()  returns FALSE (0000ms, 0271ms total)
T245C 000:781 JLINK_IsHalted()  returns FALSE (0000ms, 0271ms total)
T245C 000:783 JLINK_IsHalted()  returns FALSE (0000ms, 0271ms total)
T245C 000:785 JLINK_IsHalted()  returns FALSE (0000ms, 0271ms total)
T245C 000:787 JLINK_IsHalted()  returns FALSE (0000ms, 0271ms total)
T245C 000:789 JLINK_IsHalted()  returns FALSE (0000ms, 0271ms total)
T245C 000:791 JLINK_IsHalted()  returns FALSE (0000ms, 0271ms total)
T245C 000:793 JLINK_IsHalted()  returns FALSE (0000ms, 0271ms total)
T245C 000:795 JLINK_IsHalted()  returns FALSE (0000ms, 0271ms total)
T245C 000:797 JLINK_IsHalted()  returns FALSE (0000ms, 0271ms total)
T245C 000:799 JLINK_IsHalted()  returns FALSE (0000ms, 0271ms total)
T245C 000:801 JLINK_IsHalted()  returns FALSE (0000ms, 0271ms total)
T245C 000:803 JLINK_IsHalted()  returns FALSE (0000ms, 0271ms total)
T245C 000:805 JLINK_IsHalted() -- CPU_ReadMem(2 bytes @ 0x20000000)  returns TRUE (0002ms, 0273ms total)
T245C 000:807 JLINK_ReadReg(R15 (PC))  returns 0x20000000 (0000ms, 0271ms total)
T245C 000:807 JLINK_ClrBPEx(BPHandle = 0x0000000C)  returns 0x00 (0000ms, 0271ms total)
T245C 000:807 JLINK_ReadReg(R0)  returns 0x00000000 (0000ms, 0271ms total)
T245C 000:807 JLINK_WriteMem(0x20000164, 0x0400 Bytes, ...) - Data: 3A 43 4F F6 FF 77 07 EA 03 37 3A 43 D9 4F B8 42 ... -- CPU_WriteMem(1024 bytes @ 0x20000164)  returns 0x400 (0004ms, 0275ms total)
T245C 000:811 JLINK_WriteReg(R0, 0x08002000)  returns 0x00 (0000ms, 0275ms total)
T245C 000:811 JLINK_WriteReg(R1, 0x00000400)  returns 0x00 (0000ms, 0275ms total)
T245C 000:811 JLINK_WriteReg(R2, 0x20000164)  returns 0x00 (0000ms, 0275ms total)
T245C 000:811 JLINK_WriteReg(R3, 0x00000000)  returns 0x00 (0000ms, 0275ms total)
T245C 000:811 JLINK_WriteReg(R4, 0x00000000)  returns 0x00 (0000ms, 0275ms total)
T245C 000:811 JLINK_WriteReg(R5, 0x00000000)  returns 0x00 (0000ms, 0275ms total)
T245C 000:811 JLINK_WriteReg(R6, 0x00000000)  returns 0x00 (0000ms, 0275ms total)
T245C 000:811 JLINK_WriteReg(R7, 0x00000000)  returns 0x00 (0000ms, 0275ms total)
T245C 000:811 JLINK_WriteReg(R8, 0x00000000)  returns 0x00 (0000ms, 0275ms total)
T245C 000:811 JLINK_WriteReg(R9, 0x20000160)  returns 0x00 (0000ms, 0275ms total)
T245C 000:811 JLINK_WriteReg(R10, 0x00000000)  returns 0x00 (0000ms, 0275ms total)
T245C 000:811 JLINK_WriteReg(R11, 0x00000000)  returns 0x00 (0000ms, 0275ms total)
T245C 000:811 JLINK_WriteReg(R12, 0x00000000)  returns 0x00 (0000ms, 0275ms total)
T245C 000:811 JLINK_WriteReg(R13 (SP), 0x20000800)  returns 0x00 (0000ms, 0275ms total)
T245C 000:811 JLINK_WriteReg(R14, 0x20000001)  returns 0x00 (0000ms, 0275ms total)
T245C 000:811 JLINK_WriteReg(R15 (PC), 0x200000F4)  returns 0x00 (0000ms, 0275ms total)
T245C 000:811 JLINK_WriteReg(XPSR, 0x01000000)  returns 0x00 (0000ms, 0275ms total)
T245C 000:811 JLINK_WriteReg(MSP, 0x20000800)  returns 0x00 (0000ms, 0275ms total)
T245C 000:811 JLINK_WriteReg(PSP, 0x20000800)  returns 0x00 (0001ms, 0276ms total)
T245C 000:812 JLINK_WriteReg(CFBP, 0x00000000)  returns 0x00 (0000ms, 0276ms total)
T245C 000:812 JLINK_SetBPEx(Addr = 0x20000000, Type = 0xFFFFFFF2)  returns 0x0000000D (0000ms, 0276ms total)
T245C 000:812 JLINK_Go() -- CPU_ReadMem(4 bytes @ 0xE0001000) (0001ms, 0277ms total)
T245C 000:813 JLINK_IsHalted()  returns FALSE (0000ms, 0277ms total)
T245C 000:815 JLINK_IsHalted()  returns FALSE (0000ms, 0277ms total)
T245C 000:817 JLINK_IsHalted()  returns FALSE (0000ms, 0277ms total)
T245C 000:819 JLINK_IsHalted()  returns FALSE (0000ms, 0277ms total)
T245C 000:821 JLINK_IsHalted()  returns FALSE (0000ms, 0277ms total)
T245C 000:823 JLINK_IsHalted()  returns FALSE (0000ms, 0277ms total)
T245C 000:825 JLINK_IsHalted()  returns FALSE (0000ms, 0277ms total)
T245C 000:827 JLINK_IsHalted()  returns FALSE (0000ms, 0277ms total)
T245C 000:829 JLINK_IsHalted()  returns FALSE (0000ms, 0277ms total)
T245C 000:831 JLINK_IsHalted()  returns FALSE (0000ms, 0277ms total)
T245C 000:833 JLINK_IsHalted()  returns FALSE (0000ms, 0277ms total)
T245C 000:835 JLINK_IsHalted()  returns FALSE (0000ms, 0277ms total)
T245C 000:837 JLINK_IsHalted()  returns FALSE (0000ms, 0277ms total)
T245C 000:839 JLINK_IsHalted()  returns FALSE (0000ms, 0277ms total)
T245C 000:841 JLINK_IsHalted()  returns FALSE (0000ms, 0277ms total)
T245C 000:843 JLINK_IsHalted()  returns FALSE (0000ms, 0277ms total)
T245C 000:845 JLINK_IsHalted() -- CPU_ReadMem(2 bytes @ 0x20000000)  returns TRUE (0001ms, 0278ms total)
T245C 000:846 JLINK_ReadReg(R15 (PC))  returns 0x20000000 (0001ms, 0278ms total)
T245C 000:847 JLINK_ClrBPEx(BPHandle = 0x0000000D)  returns 0x00 (0000ms, 0278ms total)
T245C 000:847 JLINK_ReadReg(R0)  returns 0x00000000 (0000ms, 0278ms total)
T245C 000:847 JLINK_WriteMem(0x20000164, 0x0400 Bytes, ...) - Data: 01 89 4F F6 8F 73 19 40 11 43 01 81 70 47 30 B5 ... -- CPU_WriteMem(1024 bytes @ 0x20000164)  returns 0x400 (0004ms, 0282ms total)
T245C 000:851 JLINK_WriteReg(R0, 0x08002400)  returns 0x00 (0000ms, 0282ms total)
T245C 000:851 JLINK_WriteReg(R1, 0x00000400)  returns 0x00 (0000ms, 0282ms total)
T245C 000:851 JLINK_WriteReg(R2, 0x20000164)  returns 0x00 (0000ms, 0282ms total)
T245C 000:851 JLINK_WriteReg(R3, 0x00000000)  returns 0x00 (0000ms, 0282ms total)
T245C 000:851 JLINK_WriteReg(R4, 0x00000000)  returns 0x00 (0000ms, 0282ms total)
T245C 000:851 JLINK_WriteReg(R5, 0x00000000)  returns 0x00 (0000ms, 0282ms total)
T245C 000:851 JLINK_WriteReg(R6, 0x00000000)  returns 0x00 (0000ms, 0282ms total)
T245C 000:851 JLINK_WriteReg(R7, 0x00000000)  returns 0x00 (0000ms, 0282ms total)
T245C 000:851 JLINK_WriteReg(R8, 0x00000000)  returns 0x00 (0000ms, 0282ms total)
T245C 000:851 JLINK_WriteReg(R9, 0x20000160)  returns 0x00 (0000ms, 0282ms total)
T245C 000:851 JLINK_WriteReg(R10, 0x00000000)  returns 0x00 (0000ms, 0282ms total)
